Time Stamp,ID,Extended,Dir,Bus,LEN,D1,D2,D3,D4,D5,D6,D7,D8
11280535,000003CF,false,Rx,0,8,61,11,00,A3,A3,A3,A3,A3,
167526,000003CF,false,Rx,0,8,61,11,00,A3,A3,A3,A3,A3,
271424,000003CF,false,Rx,0,8,69,01,A3,A3,A3,A3,A3,A3,
276527,000003CF,false,Rx,0,8,61,11,00,A3,A3,A3,A3,A3,
375658,000003CF,false,Rx,0,8,61,11,00,A3,A3,A3,A3,A3,
481917,000003CF,false,Rx,0,8,61,11,00,A3,A3,A3,A3,A3,
583529,000003CF,false,Rx,0,8,61,11,00,A3,A3,A3,A3,A3,
687416,000003CF,false,Rx,0,8,61,11,00,A3,A3,A3,A3,A3,
775390,000003CF,false,Rx,0,8,69,01,A3,A3,A3,A3,A3,A3,
791557,000003CF,false,Rx,0,8,61,11,00,A3,A3,A3,A3,A3,
895439,000003CF,false,Rx,0,8,61,11,00,A3,A3,A3,A3,A3,
1001264,000003CF,false,Rx,0,8,61,11,00,A3,A3,A3,A3,A3,
1103438,000003CF,false,Rx,0,8,61,11,00,A3,A3,A3,A3,A3,
1207357,000003CF,false,Rx,0,8,61,11,00,A3,A3,A3,A3,A3,
1279471,000003CF,false,Rx,0,8,69,01,A3,A3,A3,A3,A3,A3,
1311435,000003CF,false,Rx,0,8,61,11,00,A3,A3,A3,A3,A3,
1415448,000003CF,false,Rx,0,8,61,11,00,A3,A3,A3,A3,A3,
1519908,000003CF,false,Rx,0,8,61,11,00,A3,A3,A3,A3,A3,
1623314,000003CF,false,Rx,0,8,61,11,00,A3,A3,A3,A3,A3,
1727335,000003CF,false,Rx,0,8,61,11,00,A3,A3,A3,A3,A3,
1783312,000003CF,false,Rx,0,8,69,01,A3,A3,A3,A3,A3,A3,
1831303,000003CF,false,Rx,0,8,61,11,00,A3,A3,A3,A3,A3,
1935347,000003CF,false,Rx,0,8,61,11,00,A3,A3,A3,A3,A3,
2039476,000003CF,false,Rx,0,8,61,11,00,A3,A3,A3,A3,A3,
2143575,000003CF,false,Rx,0,8,61,11,00,A3,A3,A3,A3,A3,
2247444,000003CF,false,Rx,0,8,61,11,00,A3,A3,A3,A3,A3,
2287374,000003CF,false,Rx,0,8,69,01,A3,A3,A3,A3,A3,A3,
2351300,000003CF,false,Rx,0,8,61,11,00,A3,A3,A3,A3,A3,
2455584,000003CF,false,Rx,0,8,61,11,00,A3,A3,A3,A3,A3,
2560204,000003CF,false,Rx,0,8,61,11,00,A3,A3,A3,A3,A3,
2663321,000003CF,false,Rx,0,8,61,11,00,A3,A3,A3,A3,A3,
2767421,000003CF,false,Rx,0,8,61,11,00,A3,A3,A3,A3,A3,
2791286,000003CF,false,Rx,0,8,69,01,A3,A3,A3,A3,A3,A3,
2871319,000003CF,false,Rx,0,8,61,11,00,A3,A3,A3,A3,A3,
2975302,000003CF,false,Rx,0,8,61,11,00,A3,A3,A3,A3,A3,
3079484,000003CF,false,Rx,0,8,61,11,00,A3,A3,A3,A3,A3,
3183319,000003CF,false,Rx,0,8,61,11,00,A3,A3,A3,A3,A3,
3287327,000003CF,false,Rx,0,8,61,11,00,A3,A3,A3,A3,A3,
3295196,000003CF,false,Rx,0,8,69,01,A3,A3,A3,A3,A3,A3,
3391395,000003CF,false,Rx,0,8,61,11,00,A3,A3,A3,A3,A3,
3495203,000003CF,false,Rx,0,8,61,11,00,A3,A3,A3,A3,A3,
3599212,000003CF,false,Rx,0,8,61,11,00,A3,A3,A3,A3,A3,
3703212,000003CF,false,Rx,0,8,61,11,00,A3,A3,A3,A3,A3,
3799241,000003CF,false,Rx,0,8,69,01,A3,A3,A3,A3,A3,A3,
3807268,000003CF,false,Rx,0,8,61,11,00,A3,A3,A3,A3,A3,
3911257,000003CF,false,Rx,0,8,61,11,00,A3,A3,A3,A3,A3,
4015216,000003CF,false,Rx,0,8,61,11,00,A3,A3,A3,A3,A3,
4119257,000003CF,false,Rx,0,8,61,11,00,A3,A3,A3,A3,A3,
4223163,000003CF,false,Rx,0,8,61,11,00,A3,A3,A3,A3,A3,
4303204,000003CF,false,Rx,0,8,69,01,A3,A3,A3,A3,A3,A3,
4327212,000003CF,false,Rx,0,8,61,11,00,A3,A3,A3,A3,A3,
4431253,000003CF,false,Rx,0,8,61,11,00,A3,A3,A3,A3,A3,
4535165,000003CF,false,Rx,0,8,61,11,00,A3,A3,A3,A3,A3,
4639141,000003CF,false,Rx,0,8,61,11,00,A3,A3,A3,A3,A3,
4743056,000003CF,false,Rx,0,8,61,11,00,A3,A3,A3,A3,A3,
4807122,000003CF,false,Rx,0,8,69,01,A3,A3,A3,A3,A3,A3,
4847212,000003CF,false,Rx,0,8,61,11,00,A3,A3,A3,A3,A3,
4951169,000003CF,false,Rx,0,8,61,11,00,A3,A3,A3,A3,A3,
5055060,000003CF,false,Rx,0,8,61,11,00,A3,A3,A3,A3,A3,
5159177,000003CF,false,Rx,0,8,61,11,00,A3,A3,A3,A3,A3,
5263034,000003CF,false,Rx,0,8,61,11,00,A3,A3,A3,A3,A3,
5311096,000003CF,false,Rx,0,8,69,01,A3,A3,A3,A3,A3,A3,
5367084,000003CF,false,Rx,0,8,61,11,00,A3,A3,A3,A3,A3,
5471552,000003CF,false,Rx,0,8,61,11,00,A3,A3,A3,A3,A3,
5575104,000003CF,false,Rx,0,8,61,11,00,A3,A3,A3,A3,A3,
5679063,000003CF,false,Rx,0,8,61,11,00,A3,A3,A3,A3,A3,
5783093,000003CF,false,Rx,0,8,61,11,00,A3,A3,A3,A3,A3,
5815104,000003CF,false,Rx,0,8,69,01,A3,A3,A3,A3,A3,A3,
5887069,000003CF,false,Rx,0,8,61,11,00,A3,A3,A3,A3,A3,
5990950,000003CF,false,Rx,0,8,61,11,00,A3,A3,A3,A3,A3,
6095030,000003CF,false,Rx,0,8,61,11,00,A3,A3,A3,A3,A3,
6198926,000003CF,false,Rx,0,8,61,11,00,A3,A3,A3,A3,A3,
6303042,000003CF,false,Rx,0,8,61,11,00,A3,A3,A3,A3,A3,
6319015,000003CF,false,Rx,0,8,69,01,A3,A3,A3,A3,A3,A3,
6407071,000003CF,false,Rx,0,8,61,11,00,A3,A3,A3,A3,A3,
6510930,000003CF,false,Rx,0,8,61,11,00,A3,A3,A3,A3,A3,
6620696,000003CF,false,Rx,0,8,61,11,00,A3,A3,A3,A3,A3,
6719073,000003CF,false,Rx,0,8,61,11,00,A3,A3,A3,A3,A3,
6822948,000003CF,false,Rx,0,8,69,01,A3,A3,A3,A3,A3,A3,
6826856,000003CF,false,Rx,0,8,61,11,00,A3,A3,A3,A3,A3,
6927005,000003CF,false,Rx,0,8,61,11,00,A3,A3,A3,A3,A3,
7030971,000003CF,false,Rx,0,8,61,11,00,A3,A3,A3,A3,A3,
7137584,000003CF,false,Rx,0,8,61,11,00,A3,A3,A3,A3,A3,
7238968,000003CF,false,Rx,0,8,61,11,00,A3,A3,A3,A3,A3,
7326975,000003CF,false,Rx,0,8,69,01,A3,A3,A3,A3,A3,A3,
7342926,000003CF,false,Rx,0,8,61,11,00,A3,A3,A3,A3,A3,
7447021,000003CF,false,Rx,0,8,61,11,00,A3,A3,A3,A3,A3,
7550822,000003CF,false,Rx,0,8,61,11,00,A3,A3,A3,A3,A3,
7655723,000003CF,false,Rx,0,8,61,11,00,A3,A3,A3,A3,A3,
7758972,000003CF,false,Rx,0,8,61,11,00,A3,A3,A3,A3,A3,
7830933,000003CF,false,Rx,0,8,69,01,A3,A3,A3,A3,A3,A3,
7862873,000003CF,false,Rx,0,8,61,11,00,A3,A3,A3,A3,A3,
7966872,000003CF,false,Rx,0,8,61,11,00,A3,A3,A3,A3,A3,
8070983,000003CF,false,Rx,0,8,61,11,00,A3,A3,A3,A3,A3,
8175212,000003CF,false,Rx,0,8,61,11,00,A3,A3,A3,A3,A3,
8278771,000003CF,false,Rx,0,8,61,11,00,A3,A3,A3,A3,A3,
8334757,000003CF,false,Rx,0,8,69,01,A3,A3,A3,A3,A3,A3,
8382937,000003CF,false,Rx,0,8,61,11,00,A3,A3,A3,A3,A3,
8486901,000003CF,false,Rx,0,8,61,11,00,A3,A3,A3,A3,A3,
8590844,000003CF,false,Rx,0,8,61,11,00,A3,A3,A3,A3,A3,
8694857,000003CF,false,Rx,0,8,61,11,00,A3,A3,A3,A3,A3,
8798844,000003CF,false,Rx,0,8,61,11,00,A3,A3,A3,A3,A3,
8838700,000003CF,false,Rx,0,8,69,01,A3,A3,A3,A3,A3,A3,
8902800,000003CF,false,Rx,0,8,61,11,00,A3,A3,A3,A3,A3,
9006864,000003CF,false,Rx,0,8,61,11,00,A3,A3,A3,A3,A3,
9110822,000003CF,false,Rx,0,8,61,11,00,A3,A3,A3,A3,A3,
9216238,000003CF,false,Rx,0,8,61,11,00,A3,A3,A3,A3,A3,
9318671,000003CF,false,Rx,0,8,61,11,00,A3,A3,A3,A3,A3,
9342659,000003CF,false,Rx,0,8,69,01,A3,A3,A3,A3,A3,A3,
9422802,000003CF,false,Rx,0,8,61,11,00,A3,A3,A3,A3,A3,
9526872,000003CF,false,Rx,0,8,61,11,00,A3,A3,A3,A3,A3,
9630757,000003CF,false,Rx,0,8,61,11,00,A3,A3,A3,A3,A3,
9734905,000003CF,false,Rx,0,8,61,11,00,A3,A3,A3,A3,A3,
9838784,000003CF,false,Rx,0,8,61,11,00,A3,A3,A3,A3,A3,
9846774,000003CF,false,Rx,0,8,69,01,A3,A3,A3,A3,A3,A3,
9942649,000003CF,false,Rx,0,8,61,11,00,A3,A3,A3,A3,A3,
10046793,000003CF,false,Rx,0,8,61,11,00,A3,A3,A3,A3,A3,
10150747,000003CF,false,Rx,0,8,61,11,00,A3,A3,A3,A3,A3,
10254757,000003CF,false,Rx,0,8,61,11,00,A3,A3,A3,A3,A3,
10350802,000003CF,false,Rx,0,8,69,01,A3,A3,A3,A3,A3,A3,
10358615,000003CF,false,Rx,0,8,61,11,00,A3,A3,A3,A3,A3,
10462782,000003CF,false,Rx,0,8,61,11,00,A3,A3,A3,A3,A3,
10566640,000003CF,false,Rx,0,8,61,11,00,A3,A3,A3,A3,A3,
10670730,000003CF,false,Rx,0,8,61,11,00,A3,A3,A3,A3,A3,
10774621,000003CF,false,Rx,0,8,61,11,00,A3,A3,A3,A3,A3,
10854759,000003CF,false,Rx,0,8,69,01,A3,A3,A3,A3,A3,A3,
10878661,000003CF,false,Rx,0,8,61,11,00,A3,A3,A3,A3,A3,
10982535,000003CF,false,Rx,0,8,61,11,00,A3,A3,A3,A3,A3,
11086654,000003CF,false,Rx,0,8,61,11,00,A3,A3,A3,A3,A3,
11190643,000003CF,false,Rx,0,8,61,11,00,A3,A3,A3,A3,A3,
11294624,000003CF,false,Rx,0,8,61,11,00,A3,A3,A3,A3,A3,
11358667,000003CF,false,Rx,0,8,69,01,A3,A3,A3,A3,A3,A3,
11398488,000003CF,false,Rx,0,8,61,11,00,A3,A3,A3,A3,A3,
11502604,000003CF,false,Rx,0,8,61,11,00,A3,A3,A3,A3,A3,
11606664,000003CF,false,Rx,0,8,61,11,00,A3,A3,A3,A3,A3,
11710631,000003CF,false,Rx,0,8,61,11,00,A3,A3,A3,A3,A3,
11814450,000003CF,false,Rx,0,8,61,11,00,A3,A3,A3,A3,A3,
11862606,000003CF,false,Rx,0,8,69,01,A3,A3,A3,A3,A3,A3,
11918423,000003CF,false,Rx,0,8,61,11,00,A3,A3,A3,A3,A3,
12022715,000003CF,false,Rx,0,8,61,11,00,A3,A3,A3,A3,A3,
12126401,000003CF,false,Rx,0,8,61,11,00,A3,A3,A3,A3,A3,
12230592,000003CF,false,Rx,0,8,61,11,00,A3,A3,A3,A3,A3,
12334665,000003CF,false,Rx,0,8,61,11,00,A3,A3,A3,A3,A3,
12366695,000003CF,false,Rx,0,8,69,01,A3,A3,A3,A3,A3,A3,
12438508,000003CF,false,Rx,0,8,61,11,00,A3,A3,A3,A3,A3,
12542427,000003CF,false,Rx,0,8,61,11,00,A3,A3,A3,A3,A3,
12646545,000003CF,false,Rx,0,8,61,11,00,A3,A3,A3,A3,A3,
12750439,000003CF,false,Rx,0,8,61,11,00,A3,A3,A3,A3,A3,
12854475,000003CF,false,Rx,0,8,61,11,00,A3,A3,A3,A3,A3,
12870458,000003CF,false,Rx,0,8,69,01,A3,A3,A3,A3,A3,A3,
12958531,000003CF,false,Rx,0,8,61,11,00,A3,A3,A3,A3,A3,
13062359,000003CF,false,Rx,0,8,61,11,00,A3,A3,A3,A3,A3,
13166484,000003CF,false,Rx,0,8,61,11,00,A3,A3,A3,A3,A3,
13275256,000003CF,false,Rx,0,8,61,11,00,A3,A3,A3,A3,A3,
13374305,000003CF,false,Rx,0,8,69,01,A3,A3,A3,A3,A3,A3,
13378536,000003CF,false,Rx,0,8,61,11,00,A3,A3,A3,A3,A3,
13478509,000003CF,false,Rx,0,8,61,11,00,A3,A3,A3,A3,A3,
13582570,000003CF,false,Rx,0,8,61,11,00,A3,A3,A3,A3,A3,
13686410,000003CF,false,Rx,0,8,61,11,00,A3,A3,A3,A3,A3,
13793032,000003CF,false,Rx,0,8,61,11,00,A3,A3,A3,A3,A3,
13878383,000003CF,false,Rx,0,8,69,01,A3,A3,A3,A3,A3,A3,
13894318,000003CF,false,Rx,0,8,61,11,00,A3,A3,A3,A3,A3,
13998358,000003CF,false,Rx,0,8,61,11,00,A3,A3,A3,A3,A3,
14102404,000003CF,false,Rx,0,8,61,11,00,A3,A3,A3,A3,A3,
14206379,000003CF,false,Rx,0,8,61,11,00,A3,A3,A3,A3,A3,
14311093,000003CF,false,Rx,0,8,61,11,00,A3,A3,A3,A3,A3,
14382309,000003CF,false,Rx,0,8,69,01,A3,A3,A3,A3,A3,A3,
14414319,000003CF,false,Rx,0,8,61,11,00,A3,A3,A3,A3,A3,
14518408,000003CF,false,Rx,0,8,61,11,00,A3,A3,A3,A3,A3,
14622244,000003CF,false,Rx,0,8,61,11,00,A3,A3,A3,A3,A3,
14726262,000003CF,false,Rx,0,8,61,11,00,A3,A3,A3,A3,A3,
14831494,000003CF,false,Rx,0,8,61,11,00,A3,A3,A3,A3,A3,
14886175,000003CF,false,Rx,0,8,69,01,A3,A3,A3,A3,A3,A3,
14934313,000003CF,false,Rx,0,8,61,11,00,A3,A3,A3,A3,A3,
15038290,000003CF,false,Rx,0,8,61,11,00,A3,A3,A3,A3,A3,
15142260,000003CF,false,Rx,0,8,61,11,00,A3,A3,A3,A3,A3,
15246209,000003CF,false,Rx,0,8,61,11,00,A3,A3,A3,A3,A3,
15350268,000003CF,false,Rx,0,8,61,11,00,A3,A3,A3,A3,A3,
15390266,000003CF,false,Rx,0,8,69,01,A3,A3,A3,A3,A3,A3,
15454292,000003CF,false,Rx,0,8,61,11,00,A3,A3,A3,A3,A3,
15558290,000003CF,false,Rx,0,8,61,11,00,A3,A3,A3,A3,A3,
15662300,000003CF,false,Rx,0,8,61,11,00,A3,A3,A3,A3,A3,
15766212,000003CF,false,Rx,0,8,61,11,00,A3,A3,A3,A3,A3,
15872236,000003CF,false,Rx,0,8,61,11,00,A3,A3,A3,A3,A3,
15894427,000003CF,false,Rx,0,8,69,01,A3,A3,A3,A3,A3,A3,
15974212,000003CF,false,Rx,0,8,61,11,00,A3,A3,A3,A3,A3,
16078230,000003CF,false,Rx,0,8,61,11,00,A3,A3,A3,A3,A3,
16182063,000003CF,false,Rx,0,8,61,11,00,A3,A3,A3,A3,A3,
16286077,000003CF,false,Rx,0,8,61,11,00,A3,A3,A3,A3,A3,
16391027,000003CF,false,Rx,0,8,61,11,00,A3,A3,A3,A3,A3,
16398902,000003CF,false,Rx,0,8,69,01,A3,A3,A3,A3,A3,A3,
16494164,000003CF,false,Rx,0,8,61,11,00,A3,A3,A3,A3,A3,
16598212,000003CF,false,Rx,0,8,61,11,00,A3,A3,A3,A3,A3,
16702083,000003CF,false,Rx,0,8,61,11,00,A3,A3,A3,A3,A3,
16806153,000003CF,false,Rx,0,8,61,11,00,A3,A3,A3,A3,A3,
16902293,000003CF,false,Rx,0,8,69,01,A3,A3,A3,A3,A3,A3,
16910173,000003CF,false,Rx,0,8,61,11,00,A3,A3,A3,A3,A3,
17014104,000003CF,false,Rx,0,8,61,11,00,A3,A3,A3,A3,A3,
17118222,000003CF,false,Rx,0,8,61,11,00,A3,A3,A3,A3,A3,
17222107,000003CF,false,Rx,0,8,61,11,00,A3,A3,A3,A3,A3,
17326022,000003CF,false,Rx,0,8,61,11,00,A3,A3,A3,A3,A3,
17406862,000003CF,false,Rx,0,8,69,01,A3,A3,A3,A3,A3,A3,
17430095,000003CF,false,Rx,0,8,61,11,00,A3,A3,A3,A3,A3,
17534042,000003CF,false,Rx,0,8,61,11,00,A3,A3,A3,A3,A3,
17638048,000003CF,false,Rx,0,8,61,11,00,A3,A3,A3,A3,A3,
17742080,000003CF,false,Rx,0,8,61,11,00,A3,A3,A3,A3,A3,
17846006,000003CF,false,Rx,0,8,61,11,00,A3,A3,A3,A3,A3,
17910014,000003CF,false,Rx,0,8,69,01,A3,A3,A3,A3,A3,A3,
17950077,000003CF,false,Rx,0,8,61,11,00,A3,A3,A3,A3,A3,
18054090,000003CF,false,Rx,0,8,61,11,00,A3,A3,A3,A3,A3,
18157886,000003CF,false,Rx,0,8,61,11,00,A3,A3,A3,A3,A3,
18262054,000003CF,false,Rx,0,8,61,11,00,A3,A3,A3,A3,A3,
18366070,000003CF,false,Rx,0,8,61,11,00,A3,A3,A3,A3,A3,
18414109,000003CF,false,Rx,0,8,69,01,A3,A3,A3,A3,A3,A3,
18470033,000003CF,false,Rx,0,8,61,11,00,A3,A3,A3,A3,A3,
18574039,000003CF,false,Rx,0,8,61,11,00,A3,A3,A3,A3,A3,
18677978,000003CF,false,Rx,0,8,61,11,00,A3,A3,A3,A3,A3,
18781919,000003CF,false,Rx,0,8,61,11,00,A3,A3,A3,A3,A3,
18885975,000003CF,false,Rx,0,8,61,11,00,A3,A3,A3,A3,A3,
18918754,000003CF,false,Rx,0,8,69,01,A3,A3,A3,A3,A3,A3,
18989999,000003CF,false,Rx,0,8,61,11,00,A3,A3,A3,A3,A3,
19093857,000003CF,false,Rx,0,8,61,11,00,A3,A3,A3,A3,A3,
19197902,000003CF,false,Rx,0,8,61,11,00,A3,A3,A3,A3,A3,
19301834,000003CF,false,Rx,0,8,61,11,00,A3,A3,A3,A3,A3,
19405866,000003CF,false,Rx,0,8,61,11,00,A3,A3,A3,A3,A3,
19424310,000003CF,false,Rx,0,8,69,01,A3,A3,A3,A3,A3,A3,
19509850,000003CF,false,Rx,0,8,61,11,00,A3,A3,A3,A3,A3,
19614053,000003CF,false,Rx,0,8,61,11,00,A3,A3,A3,A3,A3,
19717763,000003CF,false,Rx,0,8,61,11,00,A3,A3,A3,A3,A3,
19822070,000003CF,false,Rx,0,8,61,11,00,A3,A3,A3,A3,A3,
19930401,000003CF,false,Rx,0,8,69,01,A3,A3,A3,A3,A3,A3,
19936654,000003CF,false,Rx,0,8,61,11,00,A3,A3,A3,A3,A3,
20037878,000003CF,false,Rx,0,8,61,11,00,A3,A3,A3,A3,A3,
20141921,000003CF,false,Rx,0,8,61,11,00,A3,A3,A3,A3,A3,
20245915,000003CF,false,Rx,0,8,61,11,00,A3,A3,A3,A3,A3,
20349979,000003CF,false,Rx,0,8,61,11,00,A3,A3,A3,A3,A3,
20429793,000003CF,false,Rx,0,8,69,01,A3,A3,A3,A3,A3,A3,
20455289,000003CF,false,Rx,0,8,61,11,00,A3,A3,A3,A3,A3,
20557938,000003CF,false,Rx,0,8,61,11,00,A3,A3,A3,A3,A3,
20661684,000003CF,false,Rx,0,8,61,11,00,A3,A3,A3,A3,A3,
20765809,000003CF,false,Rx,0,8,61,11,00,A3,A3,A3,A3,A3,
20869651,000003CF,false,Rx,0,8,61,11,00,A3,A3,A3,A3,A3,
20933793,000003CF,false,Rx,0,8,69,01,A3,A3,A3,A3,A3,A3,
20974034,000003CF,false,Rx,0,8,61,11,00,A3,A3,A3,A3,A3,
21077781,000003CF,false,Rx,0,8,61,11,00,A3,A3,A3,A3,A3,
21181798,000003CF,false,Rx,0,8,61,11,00,A3,A3,A3,A3,A3,
21285757,000003CF,false,Rx,0,8,61,11,00,A3,A3,A3,A3,A3,
21389743,000003CF,false,Rx,0,8,61,11,00,A3,A3,A3,A3,A3,
21437851,000003CF,false,Rx,0,8,69,01,A3,A3,A3,A3,A3,A3,
21494013,000003CF,false,Rx,0,8,61,11,00,A3,A3,A3,A3,A3,
21597769,000003CF,false,Rx,0,8,61,11,00,A3,A3,A3,A3,A3,
21701578,000003CF,false,Rx,0,8,61,11,00,A3,A3,A3,A3,A3,
21805791,000003CF,false,Rx,0,8,61,11,00,A3,A3,A3,A3,A3,
21909607,000003CF,false,Rx,0,8,61,11,00,A3,A3,A3,A3,A3,
21941648,000003CF,false,Rx,0,8,69,01,A3,A3,A3,A3,A3,A3,
22014885,000003CF,false,Rx,0,8,61,11,00,A3,A3,A3,A3,A3,
22117678,000003CF,false,Rx,0,8,61,11,00,A3,A3,A3,A3,A3,
22221799,000003CF,false,Rx,0,8,61,11,00,A3,A3,A3,A3,A3,
22325719,000003CF,false,Rx,0,8,61,11,00,A3,A3,A3,A3,A3,
22429535,000003CF,false,Rx,0,8,61,11,00,A3,A3,A3,A3,A3,
22448193,000003CF,false,Rx,0,8,69,01,A3,A3,A3,A3,A3,A3,
22533938,000003CF,false,Rx,0,8,61,11,00,A3,A3,A3,A3,A3,
22637707,000003CF,false,Rx,0,8,61,11,00,A3,A3,A3,A3,A3,
22741672,000003CF,false,Rx,0,8,61,11,00,A3,A3,A3,A3,A3,
22845581,000003CF,false,Rx,0,8,61,11,00,A3,A3,A3,A3,A3,
22949583,000003CF,false,Rx,0,8,69,01,A3,A3,A3,A3,A3,A3,
22953641,000003CF,false,Rx,0,8,61,11,00,A3,A3,A3,A3,A3,
23053625,000003CF,false,Rx,0,8,61,11,00,A3,A3,A3,A3,A3,
23157494,000003CF,false,Rx,0,8,61,11,00,A3,A3,A3,A3,A3,
23261577,000003CF,false,Rx,0,8,61,11,00,A3,A3,A3,A3,A3,
23365584,000003CF,false,Rx,0,8,61,11,00,A3,A3,A3,A3,A3,
23453598,000003CF,false,Rx,0,8,69,01,A3,A3,A3,A3,A3,A3,
23469588,000003CF,false,Rx,0,8,61,11,00,A3,A3,A3,A3,A3,
23573552,000003CF,false,Rx,0,8,61,11,00,A3,A3,A3,A3,A3,
23677576,000003CF,false,Rx,0,8,61,11,00,A3,A3,A3,A3,A3,
23781579,000003CF,false,Rx,0,8,61,11,00,A3,A3,A3,A3,A3,
23885553,000003CF,false,Rx,0,8,61,11,00,A3,A3,A3,A3,A3,
23957557,000003CF,false,Rx,0,8,69,01,A3,A3,A3,A3,A3,A3,
23989409,000003CF,false,Rx,0,8,61,11,00,A3,A3,A3,A3,A3,
24093570,000003CF,false,Rx,0,8,61,11,00,A3,A3,A3,A3,A3,
24197559,000003CF,false,Rx,0,8,61,11,00,A3,A3,A3,A3,A3,
24301510,000003CF,false,Rx,0,8,61,11,00,A3,A3,A3,A3,A3,
24405535,000003CF,false,Rx,0,8,61,11,00,A3,A3,A3,A3,A3,
24461532,000003CF,false,Rx,0,8,69,01,A3,A3,A3,A3,A3,A3,
24509380,000003CF,false,Rx,0,8,61,11,00,A3,A3,A3,A3,A3,
24613583,000003CF,false,Rx,0,8,61,11,00,A3,A3,A3,A3,A3,
24717484,000003CF,false,Rx,0,8,61,11,00,A3,A3,A3,A3,A3,
24821437,000003CF,false,Rx,0,8,61,11,00,A3,A3,A3,A3,A3,
24925469,000003CF,false,Rx,0,8,61,11,00,A3,A3,A3,A3,A3,
24965335,000003CF,false,Rx,0,8,69,01,A3,A3,A3,A3,A3,A3,
25029510,000003CF,false,Rx,0,8,61,11,00,A3,A3,A3,A3,A3,
25133401,000003CF,false,Rx,0,8,61,11,00,A3,A3,A3,A3,A3,
25237396,000003CF,false,Rx,0,8,61,11,00,A3,A3,A3,A3,A3,
25341719,000003CF,false,Rx,0,8,61,11,00,A3,A3,A3,A3,A3,
25445390,000003CF,false,Rx,0,8,61,11,00,A3,A3,A3,A3,A3,
25469335,000003CF,false,Rx,0,8,69,01,A3,A3,A3,A3,A3,A3,
25549456,000003CF,false,Rx,0,8,61,11,00,A3,A3,A3,A3,A3,
25653359,000003CF,false,Rx,0,8,61,11,00,A3,A3,A3,A3,A3,
25757395,000003CF,false,Rx,0,8,61,11,00,A3,A3,A3,A3,A3,
25861359,000003CF,false,Rx,0,8,61,11,00,A3,A3,A3,A3,A3,
25965341,000003CF,false,Rx,0,8,61,11,00,A3,A3,A3,A3,A3,
25973292,000003CF,false,Rx,0,8,69,01,A3,A3,A3,A3,A3,A3,
26074484,000003CF,false,Rx,0,8,61,11,00,A3,A3,A3,A3,A3,
26173402,000003CF,false,Rx,0,8,61,11,00,A3,A3,A3,A3,A3,
26277290,000003CF,false,Rx,0,8,61,11,00,A3,A3,A3,A3,A3,
26381360,000003CF,false,Rx,0,8,61,11,00,A3,A3,A3,A3,A3,
26477510,000003CF,false,Rx,0,8,69,01,A3,A3,A3,A3,A3,A3,
26486858,000003CF,false,Rx,0,8,61,11,00,A3,A3,A3,A3,A3,
26591879,000003CF,false,Rx,0,8,61,11,00,A3,A3,A3,A3,A3,
26693198,000003CF,false,Rx,0,8,61,11,00,A3,A3,A3,A3,A3,
26797144,000003CF,false,Rx,0,8,61,11,00,A3,A3,A3,A3,A3,
26901234,000003CF,false,Rx,0,8,61,11,00,A3,A3,A3,A3,A3,
26981137,000003CF,false,Rx,0,8,69,01,A3,A3,A3,A3,A3,A3,
27005290,000003CF,false,Rx,0,8,61,11,00,A3,A3,A3,A3,A3,
27110117,000003CF,false,Rx,0,8,61,11,00,A3,A3,A3,A3,A3,
27213212,000003CF,false,Rx,0,8,61,11,00,A3,A3,A3,A3,A3,
27317300,000003CF,false,Rx,0,8,61,11,00,A3,A3,A3,A3,A3,
27421265,000003CF,false,Rx,0,8,61,11,00,A3,A3,A3,A3,A3,
27485299,000003CF,false,Rx,0,8,69,01,A3,A3,A3,A3,A3,A3,
27525269,000003CF,false,Rx,0,8,61,11,00,A3,A3,A3,A3,A3,
27629987,000003CF,false,Rx,0,8,61,11,00,A3,A3,A3,A3,A3,
27733207,000003CF,false,Rx,0,8,61,11,00,A3,A3,A3,A3,A3,
27837212,000003CF,false,Rx,0,8,61,11,00,A3,A3,A3,A3,A3,
27941316,000003CF,false,Rx,0,8,61,11,00,A3,A3,A3,A3,A3,
27989142,000003CF,false,Rx,0,8,69,01,A3,A3,A3,A3,A3,A3,
28045248,000003CF,false,Rx,0,8,61,11,00,A3,A3,A3,A3,A3,
28149264,000003CF,false,Rx,0,8,61,11,00,A3,A3,A3,A3,A3,
28253022,000003CF,false,Rx,0,8,61,11,00,A3,A3,A3,A3,A3,
28357137,000003CF,false,Rx,0,8,61,11,00,A3,A3,A3,A3,A3,
28461120,000003CF,false,Rx,0,8,61,11,00,A3,A3,A3,A3,A3,
28493104,000003CF,false,Rx,0,8,69,01,A3,A3,A3,A3,A3,A3,
28565130,000003CF,false,Rx,0,8,61,11,00,A3,A3,A3,A3,A3,
28670475,000003CF,false,Rx,0,8,61,11,00,A3,A3,A3,A3,A3,
28773131,000003CF,false,Rx,0,8,61,11,00,A3,A3,A3,A3,A3,
28858242,000003AF,false,Rx,0,8,BA,00,00,00,00,00,00,00,
28877867,000003CF,false,Rx,0,8,61,11,00,A3,A3,A3,A3,A3,
28981075,000003CF,false,Rx,0,8,61,11,00,A3,A3,A3,A3,A3,
28999145,000003CF,false,Rx,0,8,69,00,A3,A3,A3,A3,A3,A3,
29084972,000003CF,false,Rx,0,8,61,11,00,A3,A3,A3,A3,A3,
29189133,000003CF,false,Rx,0,8,61,11,00,A3,A3,A3,A3,A3,
29293095,000003CF,false,Rx,0,8,61,11,00,A3,A3,A3,A3,A3,
29397038,000003CF,false,Rx,0,8,61,11,00,A3,A3,A3,A3,A3,
29501002,000003CF,false,Rx,0,8,69,00,A3,A3,A3,A3,A3,A3,
29505100,000003CF,false,Rx,0,8,61,11,00,A3,A3,A3,A3,A3,
29605044,000003CF,false,Rx,0,8,61,11,00,A3,A3,A3,A3,A3,
29709308,000003CF,false,Rx,0,8,61,11,00,A3,A3,A3,A3,A3,
29812952,000003CF,false,Rx,0,8,61,11,00,A3,A3,A3,A3,A3,
29917041,000003CF,false,Rx,0,8,61,11,00,A3,A3,A3,A3,A3,
30005067,000003CF,false,Rx,0,8,69,00,A3,A3,A3,A3,A3,A3,
30021058,000003CF,false,Rx,0,8,61,11,00,A3,A3,A3,A3,A3,
30125070,000003CF,false,Rx,0,8,61,11,00,A3,A3,A3,A3,A3,
30229041,000003CF,false,Rx,0,8,61,11,00,A3,A3,A3,A3,A3,
30332896,000003CF,false,Rx,0,8,61,11,00,A3,A3,A3,A3,A3,
30436902,000003CF,false,Rx,0,8,61,11,00,A3,A3,A3,A3,A3,
30508929,000003CF,false,Rx,0,8,69,00,A3,A3,A3,A3,A3,A3,
30540935,000003CF,false,Rx,0,8,61,11,00,A3,A3,A3,A3,A3,
30644891,000003CF,false,Rx,0,8,61,11,00,A3,A3,A3,A3,A3,
30748813,000003CF,false,Rx,0,8,61,11,00,A3,A3,A3,A3,A3,
30853079,000003CF,false,Rx,0,8,61,11,00,A3,A3,A3,A3,A3,
30956899,000003CF,false,Rx,0,8,61,11,00,A3,A3,A3,A3,A3,
31012952,000003CF,false,Rx,0,8,69,00,A3,A3,A3,A3,A3,A3,
31060915,000003CF,false,Rx,0,8,61,11,00,A3,A3,A3,A3,A3,
31164957,000003CF,false,Rx,0,8,61,11,00,A3,A3,A3,A3,A3,
31268827,000003CF,false,Rx,0,8,61,11,00,A3,A3,A3,A3,A3,
31372925,000003CF,false,Rx,0,8,61,11,00,A3,A3,A3,A3,A3,
31477043,000003CF,false,Rx,0,8,61,11,00,A3,A3,A3,A3,A3,
31516870,000003CF,false,Rx,0,8,69,00,A3,A3,A3,A3,A3,A3,
31580850,000003CF,false,Rx,0,8,61,11,00,A3,A3,A3,A3,A3,
31684843,000003CF,false,Rx,0,8,61,11,00,A3,A3,A3,A3,A3,
31788889,000003CF,false,Rx,0,8,61,11,00,A3,A3,A3,A3,A3,
31892885,000003CF,false,Rx,0,8,61,11,00,A3,A3,A3,A3,A3,
31996952,000003CF,false,Rx,0,8,61,11,00,A3,A3,A3,A3,A3,
32020833,000003CF,false,Rx,0,8,69,00,A3,A3,A3,A3,A3,A3,
32100865,000003CF,false,Rx,0,8,61,11,00,A3,A3,A3,A3,A3,
32204776,000003CF,false,Rx,0,8,61,11,00,A3,A3,A3,A3,A3,
32308772,000003CF,false,Rx,0,8,61,11,00,A3,A3,A3,A3,A3,
32412697,000003CF,false,Rx,0,8,61,11,00,A3,A3,A3,A3,A3,
32516797,000003CF,false,Rx,0,8,61,11,00,A3,A3,A3,A3,A3,
32524802,000003CF,false,Rx,0,8,69,00,A3,A3,A3,A3,A3,A3,
32620760,000003CF,false,Rx,0,8,61,11,00,A3,A3,A3,A3,A3,
32729828,000003CF,false,Rx,0,8,61,11,00,A3,A3,A3,A3,A3,
32828760,000003CF,false,Rx,0,8,61,11,00,A3,A3,A3,A3,A3,
32932670,000003CF,false,Rx,0,8,61,11,00,A3,A3,A3,A3,A3,
33028696,000003CF,false,Rx,0,8,69,00,A3,A3,A3,A3,A3,A3,
33039392,000003CF,false,Rx,0,8,61,11,00,A3,A3,A3,A3,A3,
33140777,000003CF,false,Rx,0,8,61,11,00,A3,A3,A3,A3,A3,
33248341,000003CF,false,Rx,0,8,61,11,00,A3,A3,A3,A3,A3,
33348614,000003CF,false,Rx,0,8,61,11,00,A3,A3,A3,A3,A3,
33452739,000003CF,false,Rx,0,8,61,11,00,A3,A3,A3,A3,A3,
33532720,000003CF,false,Rx,0,8,69,00,A3,A3,A3,A3,A3,A3,
33556648,000003CF,false,Rx,0,8,61,11,00,A3,A3,A3,A3,A3,
33660718,000003CF,false,Rx,0,8,61,11,00,A3,A3,A3,A3,A3,
33698004,000003AF,false,Rx,0,8,B9,00,00,00,00,00,00,00,
33698495,000001F1,false,Rx,0,8,70,00,00,00,00,00,00,00,
33765618,000003CF,false,Rx,0,8,61,11,00,A3,A3,A3,A3,A3,
33766444,000003AF,false,Rx,0,8,BA,00,00,00,00,00,00,00,
33810343,000003AF,false,Rx,0,8,B9,00,00,00,00,00,00,00,
33866570,000003AF,false,Rx,0,8,BA,00,00,00,00,00,00,00,
33868664,000003CF,false,Rx,0,8,61,11,00,A3,A3,A3,A3,A3,
33899371,000003AF,false,Rx,0,8,B0,14,11,00,1F,00,00,00,
33903398,000001C1,false,Rx,0,8,70,A3,A3,A3,A3,A3,A3,A3,
33903418,000005C1,false,Rx,0,8,74,00,00,00,00,00,00,00,
33930468,000003AF,false,Rx,0,8,B0,14,11,00,1F,00,00,00,
33961400,000003AF,false,Rx,0,8,B0,14,11,00,1F,00,00,00,
33961708,00000151,false,Rx,0,8,70,00,00,00,00,00,00,00,
33961993,000001F1,false,Rx,0,8,70,00,00,00,00,00,00,00,
33962455,00000551,false,Rx,0,8,74,A3,A3,A3,A3,A3,A3,A3,
33962932,000005F1,false,Rx,0,8,74,A3,A3,A3,A3,A3,A3,A3,
34036754,000003CF,false,Rx,0,8,69,00,A3,A3,A3,A3,A3,A3,
34540705,000003CF,false,Rx,0,8,69,00,A3,A3,A3,A3,A3,A3,
35044547,000003CF,false,Rx,0,8,69,00,A3,A3,A3,A3,A3,A3,
35548499,000003CF,false,Rx,0,8,69,00,A3,A3,A3,A3,A3,A3,
36052569,000003CF,false,Rx,0,8,69,00,A3,A3,A3,A3,A3,A3,
36556484,000003CF,false,Rx,0,8,69,00,A3,A3,A3,A3,A3,A3,
37060419,000003CF,false,Rx,0,8,69,00,A3,A3,A3,A3,A3,A3,
37564282,000003CF,false,Rx,0,8,69,00,A3,A3,A3,A3,A3,A3,
38068255,000003CF,false,Rx,0,8,69,00,A3,A3,A3,A3,A3,A3,
38572325,000003CF,false,Rx,0,8,69,00,A3,A3,A3,A3,A3,A3,
38860928,000003CF,false,Rx,0,8,61,11,00,A3,A3,A3,A3,A3,
38964237,000003CF,false,Rx,0,8,61,11,00,A3,A3,A3,A3,A3,
39068208,000003CF,false,Rx,0,8,61,11,00,A3,A3,A3,A3,A3,
39076238,000003CF,false,Rx,0,8,69,01,A3,A3,A3,A3,A3,A3,
39172271,000003CF,false,Rx,0,8,61,11,00,A3,A3,A3,A3,A3,
39276242,000003CF,false,Rx,0,8,61,11,00,A3,A3,A3,A3,A3,
39385093,000003CF,false,Rx,0,8,61,11,00,A3,A3,A3,A3,A3,
39484250,000003CF,false,Rx,0,8,61,11,00,A3,A3,A3,A3,A3,
39580180,000003CF,false,Rx,0,8,69,01,A3,A3,A3,A3,A3,A3,
39590659,000003CF,false,Rx,0,8,61,11,00,A3,A3,A3,A3,A3,
39692259,000003CF,false,Rx,0,8,61,11,00,A3,A3,A3,A3,A3,
39796141,000003CF,false,Rx,0,8,61,11,00,A3,A3,A3,A3,A3,
39902666,000003CF,false,Rx,0,8,61,11,00,A3,A3,A3,A3,A3,
40004226,000003CF,false,Rx,0,8,61,11,00,A3,A3,A3,A3,A3,
40084003,000003CF,false,Rx,0,8,69,01,A3,A3,A3,A3,A3,A3,
40108196,000003CF,false,Rx,0,8,61,11,00,A3,A3,A3,A3,A3,
40212119,000003CF,false,Rx,0,8,61,11,00,A3,A3,A3,A3,A3,
40316043,000003CF,false,Rx,0,8,61,11,00,A3,A3,A3,A3,A3,
40420777,000003CF,false,Rx,0,8,61,11,00,A3,A3,A3,A3,A3,
40524143,000003CF,false,Rx,0,8,61,11,00,A3,A3,A3,A3,A3,
40588071,000003CF,false,Rx,0,8,69,01,A3,A3,A3,A3,A3,A3,
40627971,000003CF,false,Rx,0,8,61,11,00,A3,A3,A3,A3,A3,
40731989,000003CF,false,Rx,0,8,61,11,00,A3,A3,A3,A3,A3,
40836129,000003CF,false,Rx,0,8,61,11,00,A3,A3,A3,A3,A3,
40940176,000003CF,false,Rx,0,8,61,11,00,A3,A3,A3,A3,A3,
41044108,000003CF,false,Rx,0,8,61,11,00,A3,A3,A3,A3,A3,
41092133,000003CF,false,Rx,0,8,69,01,A3,A3,A3,A3,A3,A3,
41148048,000003CF,false,Rx,0,8,61,11,00,A3,A3,A3,A3,A3,
41252065,000003CF,false,Rx,0,8,61,11,00,A3,A3,A3,A3,A3,
41356041,000003CF,false,Rx,0,8,61,11,00,A3,A3,A3,A3,A3,
41460500,000003CF,false,Rx,0,8,61,11,00,A3,A3,A3,A3,A3,
41563992,000003CF,false,Rx,0,8,61,11,00,A3,A3,A3,A3,A3,
41596030,000003CF,false,Rx,0,8,69,01,A3,A3,A3,A3,A3,A3,
41668111,000003CF,false,Rx,0,8,61,11,00,A3,A3,A3,A3,A3,
41772008,000003CF,false,Rx,0,8,61,11,00,A3,A3,A3,A3,A3,
41876022,000003CF,false,Rx,0,8,61,11,00,A3,A3,A3,A3,A3,
41981201,000003CF,false,Rx,0,8,61,11,00,A3,A3,A3,A3,A3,
42084061,000003CF,false,Rx,0,8,61,11,00,A3,A3,A3,A3,A3,
42101719,000003CF,false,Rx,0,8,69,01,A3,A3,A3,A3,A3,A3,
42188013,000003CF,false,Rx,0,8,61,11,00,A3,A3,A3,A3,A3,
42291988,000003CF,false,Rx,0,8,61,11,00,A3,A3,A3,A3,A3,
42395863,000003CF,false,Rx,0,8,61,11,00,A3,A3,A3,A3,A3,
42501119,000003CF,false,Rx,0,8,61,11,00,A3,A3,A3,A3,A3,
42603843,000003CF,false,Rx,0,8,69,01,A3,A3,A3,A3,A3,A3,
42607941,000003CF,false,Rx,0,8,61,11,00,A3,A3,A3,A3,A3,
42707836,000003CF,false,Rx,0,8,61,11,00,A3,A3,A3,A3,A3,
42811843,000003CF,false,Rx,0,8,61,11,00,A3,A3,A3,A3,A3,
42915914,000003CF,false,Rx,0,8,61,11,00,A3,A3,A3,A3,A3,
43020048,000003CF,false,Rx,0,8,61,11,00,A3,A3,A3,A3,A3,
43107921,000003CF,false,Rx,0,8,69,01,A3,A3,A3,A3,A3,A3,
43123910,000003CF,false,Rx,0,8,61,11,00,A3,A3,A3,A3,A3,
43227938,000003CF,false,Rx,0,8,61,11,00,A3,A3,A3,A3,A3,
43331853,000003CF,false,Rx,0,8,61,11,00,A3,A3,A3,A3,A3,
43435749,000003CF,false,Rx,0,8,61,11,00,A3,A3,A3,A3,A3,
43540212,000003CF,false,Rx,0,8,61,11,00,A3,A3,A3,A3,A3,
43611751,000003CF,false,Rx,0,8,69,01,A3,A3,A3,A3,A3,A3,
43643698,000003CF,false,Rx,0,8,61,11,00,A3,A3,A3,A3,A3,
43750200,000003CF,false,Rx,0,8,61,11,00,A3,A3,A3,A3,A3,
43851848,000003CF,false,Rx,0,8,61,11,00,A3,A3,A3,A3,A3,
43955712,000003CF,false,Rx,0,8,61,11,00,A3,A3,A3,A3,A3,
44059721,000003CF,false,Rx,0,8,61,11,00,A3,A3,A3,A3,A3,
44115917,000003CF,false,Rx,0,8,69,01,A3,A3,A3,A3,A3,A3,
44163870,000003CF,false,Rx,0,8,61,11,00,A3,A3,A3,A3,A3,
44267862,000003CF,false,Rx,0,8,61,11,00,A3,A3,A3,A3,A3,
44371643,000003CF,false,Rx,0,8,61,11,00,A3,A3,A3,A3,A3,
44475820,000003CF,false,Rx,0,8,61,11,00,A3,A3,A3,A3,A3,
44579667,000003CF,false,Rx,0,8,61,11,00,A3,A3,A3,A3,A3,
44619607,000003CF,false,Rx,0,8,69,01,A3,A3,A3,A3,A3,A3,
44683777,000003CF,false,Rx,0,8,61,11,00,A3,A3,A3,A3,A3,
44787759,000003CF,false,Rx,0,8,61,11,00,A3,A3,A3,A3,A3,
44891753,000003CF,false,Rx,0,8,61,11,00,A3,A3,A3,A3,A3,
44995725,000003CF,false,Rx,0,8,61,11,00,A3,A3,A3,A3,A3,
45099752,000003CF,false,Rx,0,8,61,11,00,A3,A3,A3,A3,A3,
45123767,000003CF,false,Rx,0,8,69,01,A3,A3,A3,A3,A3,A3,
45203648,000003CF,false,Rx,0,8,61,11,00,A3,A3,A3,A3,A3,
45307693,000003CF,false,Rx,0,8,61,11,00,A3,A3,A3,A3,A3,
45411644,000003CF,false,Rx,0,8,61,11,00,A3,A3,A3,A3,A3,
45515745,000003CF,false,Rx,0,8,61,11,00,A3,A3,A3,A3,A3,
45619548,000003CF,false,Rx,0,8,61,11,00,A3,A3,A3,A3,A3,
45627601,000003CF,false,Rx,0,8,69,01,A3,A3,A3,A3,A3,A3,
45723743,000003CF,false,Rx,0,8,61,11,00,A3,A3,A3,A3,A3,
45827569,000003CF,false,Rx,0,8,61,11,00,A3,A3,A3,A3,A3,
45931630,000003CF,false,Rx,0,8,61,11,00,A3,A3,A3,A3,A3,
46040549,000003CF,false,Rx,0,8,61,11,00,A3,A3,A3,A3,A3,
46131635,000003CF,false,Rx,0,8,69,01,A3,A3,A3,A3,A3,A3,
46142086,000003CF,false,Rx,0,8,61,11,00,A3,A3,A3,A3,A3,
46243771,000003CF,false,Rx,0,8,61,11,00,A3,A3,A3,A3,A3,
46347646,000003CF,false,Rx,0,8,61,11,00,A3,A3,A3,A3,A3,
46451658,000003CF,false,Rx,0,8,61,11,00,A3,A3,A3,A3,A3,
46558309,000003CF,false,Rx,0,8,61,11,00,A3,A3,A3,A3,A3,
46635614,000003CF,false,Rx,0,8,69,01,A3,A3,A3,A3,A3,A3,
46659764,000003CF,false,Rx,0,8,61,11,00,A3,A3,A3,A3,A3,
46763510,000003CF,false,Rx,0,8,61,11,00,A3,A3,A3,A3,A3,
46867553,000003CF,false,Rx,0,8,61,11,00,A3,A3,A3,A3,A3,
46971618,000003CF,false,Rx,0,8,61,11,00,A3,A3,A3,A3,A3,
47075873,000003CF,false,Rx,0,8,61,11,00,A3,A3,A3,A3,A3,
47139412,000003CF,false,Rx,0,8,69,01,A3,A3,A3,A3,A3,A3,
47179449,000003CF,false,Rx,0,8,61,11,00,A3,A3,A3,A3,A3,
47283573,000003CF,false,Rx,0,8,61,11,00,A3,A3,A3,A3,A3,
47387637,000003CF,false,Rx,0,8,61,11,00,A3,A3,A3,A3,A3,
47491614,000003CF,false,Rx,0,8,61,11,00,A3,A3,A3,A3,A3,
47595642,000003CF,false,Rx,0,8,61,11,00,A3,A3,A3,A3,A3,
47643525,000003CF,false,Rx,0,8,69,01,A3,A3,A3,A3,A3,A3,
47699517,000003CF,false,Rx,0,8,61,11,00,A3,A3,A3,A3,A3,
47803544,000003CF,false,Rx,0,8,61,11,00,A3,A3,A3,A3,A3,
47907488,000003CF,false,Rx,0,8,61,11,00,A3,A3,A3,A3,A3,
48012102,000003CF,false,Rx,0,8,61,11,00,A3,A3,A3,A3,A3,
48115553,000003CF,false,Rx,0,8,61,11,00,A3,A3,A3,A3,A3,
48147484,000003CF,false,Rx,0,8,69,01,A3,A3,A3,A3,A3,A3,
48219484,000003CF,false,Rx,0,8,61,11,00,A3,A3,A3,A3,A3,
48323428,000003CF,false,Rx,0,8,61,11,00,A3,A3,A3,A3,A3,
48427386,000003CF,false,Rx,0,8,61,11,00,A3,A3,A3,A3,A3,
48531410,000003CF,false,Rx,0,8,61,11,00,A3,A3,A3,A3,A3,
48636342,000003CF,false,Rx,0,8,61,11,00,A3,A3,A3,A3,A3,
48651298,000003CF,false,Rx,0,8,69,01,A3,A3,A3,A3,A3,A3,
48739369,000003CF,false,Rx,0,8,61,11,00,A3,A3,A3,A3,A3,
48843259,000003CF,false,Rx,0,8,61,11,00,A3,A3,A3,A3,A3,
48947449,000003CF,false,Rx,0,8,61,11,00,A3,A3,A3,A3,A3,
49051288,000003CF,false,Rx,0,8,61,11,00,A3,A3,A3,A3,A3,
49155403,000003CF,false,Rx,0,8,69,01,A3,A3,A3,A3,A3,A3,
49159653,000003CF,false,Rx,0,8,61,11,00,A3,A3,A3,A3,A3,
49259318,000003CF,false,Rx,0,8,61,11,00,A3,A3,A3,A3,A3,
49363315,000003CF,false,Rx,0,8,61,11,00,A3,A3,A3,A3,A3,
49467287,000003CF,false,Rx,0,8,61,11,00,A3,A3,A3,A3,A3,
49571310,000003CF,false,Rx,0,8,61,11,00,A3,A3,A3,A3,A3,
49660128,000003CF,false,Rx,0,8,69,01,A3,A3,A3,A3,A3,A3,
49675391,000003CF,false,Rx,0,8,61,11,00,A3,A3,A3,A3,A3,
49779278,000003CF,false,Rx,0,8,61,11,00,A3,A3,A3,A3,A3,
49883294,000003CF,false,Rx,0,8,61,11,00,A3,A3,A3,A3,A3,
49987306,000003CF,false,Rx,0,8,61,11,00,A3,A3,A3,A3,A3,
50091464,000003CF,false,Rx,0,8,61,11,00,A3,A3,A3,A3,A3,
50163313,000003CF,false,Rx,0,8,69,01,A3,A3,A3,A3,A3,A3,
50195213,000003CF,false,Rx,0,8,61,11,00,A3,A3,A3,A3,A3,
50299287,000003CF,false,Rx,0,8,61,11,00,A3,A3,A3,A3,A3,
50403225,000003CF,false,Rx,0,8,61,11,00,A3,A3,A3,A3,A3,
50507338,000003CF,false,Rx,0,8,61,11,00,A3,A3,A3,A3,A3,
50611146,000003CF,false,Rx,0,8,61,11,00,A3,A3,A3,A3,A3,
50667248,000003CF,false,Rx,0,8,69,01,A3,A3,A3,A3,A3,A3,
50715279,000003CF,false,Rx,0,8,61,11,00,A3,A3,A3,A3,A3,
50819088,000003CF,false,Rx,0,8,61,11,00,A3,A3,A3,A3,A3,
50923087,000003CF,false,Rx,0,8,61,11,00,A3,A3,A3,A3,A3,
51027296,000003CF,false,Rx,0,8,61,11,00,A3,A3,A3,A3,A3,
51131052,000003CF,false,Rx,0,8,61,11,00,A3,A3,A3,A3,A3,
51171796,000003CF,false,Rx,0,8,69,01,A3,A3,A3,A3,A3,A3,
51235051,000003CF,false,Rx,0,8,61,11,00,A3,A3,A3,A3,A3,
51339255,000003CF,false,Rx,0,8,61,11,00,A3,A3,A3,A3,A3,
51443019,000003CF,false,Rx,0,8,61,11,00,A3,A3,A3,A3,A3,
51547100,000003CF,false,Rx,0,8,61,11,00,A3,A3,A3,A3,A3,
51651011,000003CF,false,Rx,0,8,61,11,00,A3,A3,A3,A3,A3,
51677952,000003CF,false,Rx,0,8,69,01,A3,A3,A3,A3,A3,A3,
51755043,000003CF,false,Rx,0,8,61,11,00,A3,A3,A3,A3,A3,
51859027,000003CF,false,Rx,0,8,61,11,00,A3,A3,A3,A3,A3,
51963137,000003CF,false,Rx,0,8,61,11,00,A3,A3,A3,A3,A3,
52067112,000003CF,false,Rx,0,8,61,11,00,A3,A3,A3,A3,A3,
52171181,000003CF,false,Rx,0,8,61,11,00,A3,A3,A3,A3,A3,
52184495,000003CF,false,Rx,0,8,69,01,A3,A3,A3,A3,A3,A3,
52275018,000003CF,false,Rx,0,8,61,11,00,A3,A3,A3,A3,A3,
52379072,000003CF,false,Rx,0,8,61,11,00,A3,A3,A3,A3,A3,
52483142,000003CF,false,Rx,0,8,61,11,00,A3,A3,A3,A3,A3,
52587095,000003CF,false,Rx,0,8,61,11,00,A3,A3,A3,A3,A3,
52683114,000003CF,false,Rx,0,8,69,01,A3,A3,A3,A3,A3,A3,
52695954,000003CF,false,Rx,0,8,61,11,00,A3,A3,A3,A3,A3,
52795123,000003CF,false,Rx,0,8,61,11,00,A3,A3,A3,A3,A3,
52898926,000003CF,false,Rx,0,8,61,11,00,A3,A3,A3,A3,A3,
53003055,000003CF,false,Rx,0,8,61,11,00,A3,A3,A3,A3,A3,
53107111,000003CF,false,Rx,0,8,61,11,00,A3,A3,A3,A3,A3,
53187088,000003CF,false,Rx,0,8,69,01,A3,A3,A3,A3,A3,A3,
53213464,000003CF,false,Rx,0,8,61,11,00,A3,A3,A3,A3,A3,
53314913,000003CF,false,Rx,0,8,61,11,00,A3,A3,A3,A3,A3,
53418965,000003CF,false,Rx,0,8,61,11,00,A3,A3,A3,A3,A3,
53523059,000003CF,false,Rx,0,8,61,11,00,A3,A3,A3,A3,A3,
53627019,000003CF,false,Rx,0,8,61,11,00,A3,A3,A3,A3,A3,
53691027,000003CF,false,Rx,0,8,69,01,A3,A3,A3,A3,A3,A3,
53731930,000003CF,false,Rx,0,8,61,11,00,A3,A3,A3,A3,A3,
53835028,000003CF,false,Rx,0,8,61,11,00,A3,A3,A3,A3,A3,
53938940,000003CF,false,Rx,0,8,61,11,00,A3,A3,A3,A3,A3,
54043022,000003CF,false,Rx,0,8,61,11,00,A3,A3,A3,A3,A3,
54147023,000003CF,false,Rx,0,8,61,11,00,A3,A3,A3,A3,A3,
54195063,000003CF,false,Rx,0,8,69,01,A3,A3,A3,A3,A3,A3,
54252293,000003CF,false,Rx,0,8,61,11,00,A3,A3,A3,A3,A3,
54354993,000003CF,false,Rx,0,8,61,11,00,A3,A3,A3,A3,A3,
54460441,000003CF,false,Rx,0,8,61,11,00,A3,A3,A3,A3,A3,
54564944,000003CF,false,Rx,0,8,61,11,00,A3,A3,A3,A3,A3,
54666960,000003CF,false,Rx,0,8,61,11,00,A3,A3,A3,A3,A3,
54698945,000003CF,false,Rx,0,8,69,01,A3,A3,A3,A3,A3,A3,
54770858,000003CF,false,Rx,0,8,61,11,00,A3,A3,A3,A3,A3,
54874940,000003CF,false,Rx,0,8,61,11,00,A3,A3,A3,A3,A3,
54978889,000003CF,false,Rx,0,8,61,11,00,A3,A3,A3,A3,A3,
55082886,000003CF,false,Rx,0,8,61,11,00,A3,A3,A3,A3,A3,
55186889,000003CF,false,Rx,0,8,61,11,00,A3,A3,A3,A3,A3,
55202848,000003CF,false,Rx,0,8,69,01,A3,A3,A3,A3,A3,A3,
55291615,000003CF,false,Rx,0,8,61,11,00,A3,A3,A3,A3,A3,
55394760,000003CF,false,Rx,0,8,61,11,00,A3,A3,A3,A3,A3,
55498936,000003CF,false,Rx,0,8,61,11,00,A3,A3,A3,A3,A3,
55602889,000003CF,false,Rx,0,8,61,11,00,A3,A3,A3,A3,A3,
55706844,000003CF,false,Rx,0,8,69,01,A3,A3,A3,A3,A3,A3,
55710897,000003CF,false,Rx,0,8,61,11,00,A3,A3,A3,A3,A3,
55810833,000003CF,false,Rx,0,8,61,11,00,A3,A3,A3,A3,A3,
55914805,000003CF,false,Rx,0,8,61,11,00,A3,A3,A3,A3,A3,
56018760,000003CF,false,Rx,0,8,61,11,00,A3,A3,A3,A3,A3,
56122759,000003CF,false,Rx,0,8,61,11,00,A3,A3,A3,A3,A3,
56210797,000003CF,false,Rx,0,8,69,01,A3,A3,A3,A3,A3,A3,
56226760,000003CF,false,Rx,0,8,61,11,00,A3,A3,A3,A3,A3,
56331000,000003CF,false,Rx,0,8,61,11,00,A3,A3,A3,A3,A3,
56434788,000003CF,false,Rx,0,8,61,11,00,A3,A3,A3,A3,A3,
56538616,000003CF,false,Rx,0,8,61,11,00,A3,A3,A3,A3,A3,
57236285,000003CF,false,Rx,0,8,61,11,00,A3,A3,A3,A3,A3,
57340075,000003CF,false,Rx,0,8,61,11,00,A3,A3,A3,A3,A3,
57444188,000003CF,false,Rx,0,8,61,11,00,A3,A3,A3,A3,A3,
57548341,000003CF,false,Rx,0,8,61,11,00,A3,A3,A3,A3,A3,
57636210,000003CF,false,Rx,0,8,69,00,A3,A3,A3,A3,A3,A3,
57652209,000003CF,false,Rx,0,8,61,11,00,A3,A3,A3,A3,A3,
57756338,000003CF,false,Rx,0,8,61,11,00,A3,A3,A3,A3,A3,
57862072,000003CF,false,Rx,0,8,61,11,00,A3,A3,A3,A3,A3,
57964186,000003CF,false,Rx,0,8,61,11,00,A3,A3,A3,A3,A3,
58068225,000003CF,false,Rx,0,8,61,11,00,A3,A3,A3,A3,A3,
58140185,000003CF,false,Rx,0,8,69,00,A3,A3,A3,A3,A3,A3,
58172168,000003CF,false,Rx,0,8,61,11,00,A3,A3,A3,A3,A3,
58276174,000003CF,false,Rx,0,8,61,11,00,A3,A3,A3,A3,A3,
58380136,000003CF,false,Rx,0,8,61,11,00,A3,A3,A3,A3,A3,
58484143,000003CF,false,Rx,0,8,61,11,00,A3,A3,A3,A3,A3,
58588119,000003CF,false,Rx,0,8,61,11,00,A3,A3,A3,A3,A3,
58644137,000003CF,false,Rx,0,8,69,00,A3,A3,A3,A3,A3,A3,
58692183,000003CF,false,Rx,0,8,61,11,00,A3,A3,A3,A3,A3,
58796111,000003CF,false,Rx,0,8,61,11,00,A3,A3,A3,A3,A3,
58900123,000003CF,false,Rx,0,8,61,11,00,A3,A3,A3,A3,A3,
59004002,000003CF,false,Rx,0,8,61,11,00,A3,A3,A3,A3,A3,
59108183,000003CF,false,Rx,0,8,61,11,00,A3,A3,A3,A3,A3,
59148176,000003CF,false,Rx,0,8,69,00,A3,A3,A3,A3,A3,A3,
59211958,000003CF,false,Rx,0,8,61,11,00,A3,A3,A3,A3,A3,
59316083,000003CF,false,Rx,0,8,61,11,00,A3,A3,A3,A3,A3,
59420075,000003CF,false,Rx,0,8,61,11,00,A3,A3,A3,A3,A3,
59524108,000003CF,false,Rx,0,8,61,11,00,A3,A3,A3,A3,A3,
59628108,000003CF,false,Rx,0,8,61,11,00,A3,A3,A3,A3,A3,
59652020,000003CF,false,Rx,0,8,69,00,A3,A3,A3,A3,A3,A3,
59732057,000003CF,false,Rx,0,8,61,11,00,A3,A3,A3,A3,A3,
59835990,000003CF,false,Rx,0,8,61,11,00,A3,A3,A3,A3,A3,
59939867,000003CF,false,Rx,0,8,61,11,00,A3,A3,A3,A3,A3,
60044011,000003CF,false,Rx,0,8,61,11,00,A3,A3,A3,A3,A3,
60147945,000003CF,false,Rx,0,8,61,11,00,A3,A3,A3,A3,A3,
60155982,000003CF,false,Rx,0,8,69,00,A3,A3,A3,A3,A3,A3,
60252022,000003CF,false,Rx,0,8,61,11,00,A3,A3,A3,A3,A3,
60355874,000003CF,false,Rx,0,8,61,11,00,A3,A3,A3,A3,A3,
60462098,000003CF,false,Rx,0,8,61,11,00,A3,A3,A3,A3,A3,
60564025,000003CF,false,Rx,0,8,61,11,00,A3,A3,A3,A3,A3,
60659980,000003CF,false,Rx,0,8,69,00,A3,A3,A3,A3,A3,A3,
60668044,000003CF,false,Rx,0,8,61,11,00,A3,A3,A3,A3,A3,
60771993,000003CF,false,Rx,0,8,61,11,00,A3,A3,A3,A3,A3,
60876077,000003CF,false,Rx,0,8,61,11,00,A3,A3,A3,A3,A3,
60979923,000003CF,false,Rx,0,8,61,11,00,A3,A3,A3,A3,A3,
61083818,000003CF,false,Rx,0,8,61,11,00,A3,A3,A3,A3,A3,
61163838,000003CF,false,Rx,0,8,69,00,A3,A3,A3,A3,A3,A3,
61187942,000003CF,false,Rx,0,8,61,11,00,A3,A3,A3,A3,A3,
61291785,000003CF,false,Rx,0,8,61,11,00,A3,A3,A3,A3,A3,
61395821,000003CF,false,Rx,0,8,61,11,00,A3,A3,A3,A3,A3,
61499869,000003CF,false,Rx,0,8,61,11,00,A3,A3,A3,A3,A3,
61603922,000003CF,false,Rx,0,8,61,11,00,A3,A3,A3,A3,A3,
61667785,000003CF,false,Rx,0,8,69,00,A3,A3,A3,A3,A3,A3,
61707894,000003CF,false,Rx,0,8,61,11,00,A3,A3,A3,A3,A3,
61811845,000003CF,false,Rx,0,8,61,11,00,A3,A3,A3,A3,A3,
61915757,000003CF,false,Rx,0,8,61,11,00,A3,A3,A3,A3,A3,
62020014,000003CF,false,Rx,0,8,61,11,00,A3,A3,A3,A3,A3,
62123775,000003CF,false,Rx,0,8,61,11,00,A3,A3,A3,A3,A3,
62171849,000003CF,false,Rx,0,8,69,00,A3,A3,A3,A3,A3,A3,
62227842,000003CF,false,Rx,0,8,61,11,00,A3,A3,A3,A3,A3,
62331787,000003CF,false,Rx,0,8,61,11,00,A3,A3,A3,A3,A3,
62435829,000003CF,false,Rx,0,8,61,11,00,A3,A3,A3,A3,A3,
62539818,000003CF,false,Rx,0,8,61,11,00,A3,A3,A3,A3,A3,
62645357,000003CF,false,Rx,0,8,61,11,00,A3,A3,A3,A3,A3,
62675787,000003CF,false,Rx,0,8,69,00,A3,A3,A3,A3,A3,A3,
62747881,000003CF,false,Rx,0,8,61,11,00,A3,A3,A3,A3,A3,
62851758,000003CF,false,Rx,0,8,61,11,00,A3,A3,A3,A3,A3,
62955760,000003CF,false,Rx,0,8,61,11,00,A3,A3,A3,A3,A3,
63059754,000003CF,false,Rx,0,8,61,11,00,A3,A3,A3,A3,A3,
63163794,000003CF,false,Rx,0,8,61,11,00,A3,A3,A3,A3,A3,
63179586,000003CF,false,Rx,0,8,69,00,A3,A3,A3,A3,A3,A3,
63267776,000003CF,false,Rx,0,8,61,11,00,A3,A3,A3,A3,A3,
63371631,000003CF,false,Rx,0,8,61,11,00,A3,A3,A3,A3,A3,
63475691,000003CF,false,Rx,0,8,61,11,00,A3,A3,A3,A3,A3,
63579709,000003CF,false,Rx,0,8,61,11,00,A3,A3,A3,A3,A3,
63683758,000003CF,false,Rx,0,8,69,00,A3,A3,A3,A3,A3,A3,
63689834,000003CF,false,Rx,0,8,61,11,00,A3,A3,A3,A3,A3,
63787593,000003CF,false,Rx,0,8,61,11,00,A3,A3,A3,A3,A3,
63891576,000003CF,false,Rx,0,8,61,11,00,A3,A3,A3,A3,A3,
63995666,000003CF,false,Rx,0,8,61,11,00,A3,A3,A3,A3,A3,
64099715,000003CF,false,Rx,0,8,61,11,00,A3,A3,A3,A3,A3,
64187672,000003CF,false,Rx,0,8,69,00,A3,A3,A3,A3,A3,A3,
64203648,000003CF,false,Rx,0,8,61,11,00,A3,A3,A3,A3,A3,
64307626,000003CF,false,Rx,0,8,61,11,00,A3,A3,A3,A3,A3,
64411826,000003CF,false,Rx,0,8,61,11,00,A3,A3,A3,A3,A3,
64515613,000003CF,false,Rx,0,8,61,11,00,A3,A3,A3,A3,A3,
64619604,000003CF,false,Rx,0,8,61,11,00,A3,A3,A3,A3,A3,
64691637,000003CF,false,Rx,0,8,69,00,A3,A3,A3,A3,A3,A3,
64723545,000003CF,false,Rx,0,8,61,11,00,A3,A3,A3,A3,A3,
64827674,000003CF,false,Rx,0,8,61,11,00,A3,A3,A3,A3,A3,
64931613,000003CF,false,Rx,0,8,61,11,00,A3,A3,A3,A3,A3,
65035447,000003CF,false,Rx,0,8,61,11,00,A3,A3,A3,A3,A3,
65139464,000003CF,false,Rx,0,8,61,11,00,A3,A3,A3,A3,A3,
65195449,000003CF,false,Rx,0,8,69,00,A3,A3,A3,A3,A3,A3,
65243484,000003CF,false,Rx,0,8,61,11,00,A3,A3,A3,A3,A3,
65347526,000003CF,false,Rx,0,8,61,11,00,A3,A3,A3,A3,A3,
65451594,000003CF,false,Rx,0,8,61,11,00,A3,A3,A3,A3,A3,
65555484,000003CF,false,Rx,0,8,61,11,00,A3,A3,A3,A3,A3,
65659382,000003CF,false,Rx,0,8,61,11,00,A3,A3,A3,A3,A3,
65699562,000003CF,false,Rx,0,8,69,00,A3,A3,A3,A3,A3,A3,
65763488,000003CF,false,Rx,0,8,61,11,00,A3,A3,A3,A3,A3,
65867510,000003CF,false,Rx,0,8,61,11,00,A3,A3,A3,A3,A3,
65971596,000003CF,false,Rx,0,8,61,11,00,A3,A3,A3,A3,A3,
66075444,000003CF,false,Rx,0,8,61,11,00,A3,A3,A3,A3,A3,
66179396,000003CF,false,Rx,0,8,61,11,00,A3,A3,A3,A3,A3,
66203353,000003CF,false,Rx,0,8,69,00,A3,A3,A3,A3,A3,A3,
66283502,000003CF,false,Rx,0,8,61,11,00,A3,A3,A3,A3,A3,
66342858,000003AF,false,Rx,0,8,BA,00,00,00,00,00,00,00,
66354791,000003AF,false,Rx,0,8,BA,00,00,00,00,00,00,00,
66387386,000003CF,false,Rx,0,8,61,11,00,A3,A3,A3,A3,A3,
66418812,000003AF,false,Rx,0,8,B0,14,11,00,1F,00,00,00,
66422642,000001C1,false,Rx,0,8,70,A3,A3,A3,A3,A3,A3,A3,
66422662,000005C1,false,Rx,0,8,74,00,00,00,00,00,00,00,
66449591,000003AF,false,Rx,0,8,B0,14,11,00,1F,00,00,00,
66480724,000003AF,false,Rx,0,8,B0,14,11,00,1F,00,00,00,
66481076,00000151,false,Rx,0,8,70,00,00,00,00,00,00,00,
66481086,000001F1,false,Rx,0,8,70,00,00,00,00,00,00,00,
66481734,00000551,false,Rx,0,8,74,A3,A3,A3,A3,A3,A3,A3,
66482187,000005F1,false,Rx,0,8,74,A3,A3,A3,A3,A3,A3,A3,
66653737,000003AF,false,Rx,0,8,B9,00,00,00,00,00,00,00,
66707470,000003CF,false,Rx,0,8,69,00,A3,A3,A3,A3,A3,A3,
66881899,00000151,false,Rx,0,8,03,52,09,00,00,00,00,00,
66882556,00000551,false,Rx,0,8,74,A3,A3,A3,A3,A3,A3,A3,
66887535,000001C1,false,Rx,0,8,02,64,0F,A3,A3,A3,A3,A3,
66888001,000005C1,false,Rx,0,8,74,00,00,00,00,00,00,00,
66958445,00000151,false,Rx,0,8,02,54,01,00,00,00,00,00,
66959451,00000551,false,Rx,0,8,74,A3,A3,A3,A3,A3,A3,A3,
66964826,00000151,false,Rx,0,8,02,54,03,00,00,00,00,00,
66964846,00000551,false,Rx,0,8,74,A3,A3,A3,A3,A3,A3,A3,
66964853,000001C1,false,Rx,0,8,05,63,32,31,31,31,A3,A3,
66964859,000005C1,false,Rx,0,8,74,00,00,00,00,00,00,00,
66979524,00000151,false,Rx,0,8,10,0E,77,55,55,DF,71,01,
66980156,00000551,false,Rx,0,8,30,01,00,A3,A3,A3,A3,A3,
66988052,000001F1,false,Rx,0,8,11,2E,21,0B,00,25,41,42,
66988739,00000151,false,Rx,0,8,21,4C,20,20,31,35,33,20,
66988749,000005F1,false,Rx,0,8,30,01,00,A3,A3,A3,A3,A3,
66989407,00000551,false,Rx,0,8,30,01,00,A3,A3,A3,A3,A3,
66989700,00000151,false,Rx,0,8,22,20,00,00,00,00,00,00,
66989985,000001F1,false,Rx,0,8,21,43,44,45,46,00,01,30,
66990623,00000551,false,Rx,0,8,74,A3,A3,A3,A3,A3,A3,A3,
66991267,000005F1,false,Rx,0,8,30,01,00,A3,A3,A3,A3,A3,
66991737,000001F1,false,Rx,0,8,22,30,00,00,00,00,00,00,
66992790,000005F1,false,Rx,0,8,30,01,00,A3,A3,A3,A3,A3,
66993631,000001F1,false,Rx,0,8,23,00,00,00,00,00,00,00,
66995535,000005F1,false,Rx,0,8,30,01,00,A3,A3,A3,A3,A3,
66996761,000001F1,false,Rx,0,8,24,00,00,00,00,00,00,38,
66997400,000005F1,false,Rx,0,8,30,01,00,A3,A3,A3,A3,A3,
66997657,000001F1,false,Rx,0,8,25,00,00,00,00,00,66,00,
66998505,000005F1,false,Rx,0,8,30,01,00,A3,A3,A3,A3,A3,
66999685,000001F1,false,Rx,0,8,26,00,00,00,00,43,00,00,
67010211,000005F1,false,Rx,0,8,30,01,00,A3,A3,A3,A3,A3,
67010689,000001F1,false,Rx,0,8,27,00,00,00,41,80,00,00,
67011877,000005F1,false,Rx,0,8,30,01,00,A3,A3,A3,A3,A3,
67012704,000001F1,false,Rx,0,8,28,00,00,40,C0,00,00,00,
67013365,000005F1,false,Rx,0,8,30,01,00,A3,A3,A3,A3,A3,
67013885,000001F1,false,Rx,0,8,29,00,60,60,00,00,00,00,
67018308,000005F1,false,Rx,0,8,30,01,00,A3,A3,A3,A3,A3,
67018779,000001F1,false,Rx,0,8,2A,60,2F,C0,00,00,00,20,
67021580,000005F1,false,Rx,0,8,30,01,00,A3,A3,A3,A3,A3,
67024986,000001F1,false,Rx,0,8,2B,E6,38,00,00,00,23,57,
67025007,000005F1,false,Rx,0,8,30,01,00,A3,A3,A3,A3,A3,
67025013,000001F1,false,Rx,0,8,2C,06,00,00,00,36,53,C1,
67027434,000005F1,false,Rx,0,8,30,01,00,A3,A3,A3,A3,A3,
67028590,000001F1,false,Rx,0,8,2D,00,00,00,18,19,E0,80,
67031609,000005F1,false,Rx,0,8,30,01,00,A3,A3,A3,A3,A3,
67032681,000001F1,false,Rx,0,8,2E,00,00,10,3C,E7,DF,E0,
67033348,000005F1,false,Rx,0,8,30,01,00,A3,A3,A3,A3,A3,
67033820,000001F1,false,Rx,0,8,2F,00,20,3E,FC,30,38,00,
67036254,000005F1,false,Rx,0,8,30,01,00,A3,A3,A3,A3,A3,
67037663,000001F1,false,Rx,0,8,20,20,3E,40,E0,08,00,43,
67038285,000005F1,false,Rx,0,8,30,01,00,A3,A3,A3,A3,A3,
67038773,000001F1,false,Rx,0,8,21,FE,1F,10,08,00,43,F0,
67041569,000005F1,false,Rx,0,8,30,01,00,A3,A3,A3,A3,A3,
67044614,000001F1,false,Rx,0,8,22,BE,10,18,00,83,87,9E,
67044631,000005F1,false,Rx,0,8,30,01,00,A3,A3,A3,A3,A3,
67044637,000001F1,false,Rx,0,8,23,08,30,00,8E,1F,CE,08,
67046646,000005F1,false,Rx,0,8,30,01,00,A3,A3,A3,A3,A3,
67047761,000001F1,false,Rx,0,8,24,60,00,B1,FF,EC,09,C0,
67048266,000005F1,false,Rx,0,8,30,01,00,A3,A3,A3,A3,A3,
67048867,000001F1,false,Rx,0,8,25,00,C3,FF,E4,0F,00,00,
67049400,000005F1,false,Rx,0,8,30,01,00,A3,A3,A3,A3,A3,
67049861,000001F1,false,Rx,0,8,26,1F,FF,F4,0E,00,03,E7,
67052486,000005F1,false,Rx,0,8,30,01,00,A3,A3,A3,A3,A3,
67053671,000001F1,false,Rx,0,8,27,FF,F2,08,00,06,F6,7F,
67054313,000005F1,false,Rx,0,8,30,01,00,A3,A3,A3,A3,A3,
67054780,000001F1,false,Rx,0,8,28,F9,28,00,1C,F8,1F,FD,
67055613,000005F1,false,Rx,0,8,30,01,00,A3,A3,A3,A3,A3,
67056586,000001F1,false,Rx,0,8,29,E8,00,30,F8,1F,FC,E8,
67057416,000005F1,false,Rx,0,8,30,01,00,A3,A3,A3,A3,A3,
67057673,000001F1,false,Rx,0,8,2A,00,60,F0,07,FE,C8,00,
67058705,000005F1,false,Rx,0,8,30,01,00,A3,A3,A3,A3,A3,
67059718,000001F1,false,Rx,0,8,2B,C0,F8,01,FE,D0,00,80,
67061949,000005F1,false,Rx,0,8,30,01,00,A3,A3,A3,A3,A3,
67065021,000001F1,false,Rx,0,8,2C,78,02,7E,70,00,80,7C,
67065038,000005F1,false,Rx,0,8,30,01,00,A3,A3,A3,A3,A3,
67065045,000001F1,false,Rx,0,8,2D,00,1F,60,00,E0,7E,00,
67066950,000005F1,false,Rx,0,8,30,01,00,A3,A3,A3,A3,A3,
67067682,000001F1,false,Rx,0,8,2E,3F,20,00,3F,DF,80,7F,
67068332,000005F1,false,Rx,0,8,30,01,00,A3,A3,A3,A3,A3,
67068806,000001F1,false,Rx,0,8,2F,80,00,00,0F,C0,FF,C0,
67069447,000005F1,false,Rx,0,8,30,01,00,A3,A3,A3,A3,A3,
67070602,000001F1,false,Rx,0,8,20,00,00,07,C0,FF,60,00,
67073074,000005F1,false,Rx,0,8,30,01,00,A3,A3,A3,A3,A3,
67073721,000001F1,false,Rx,0,8,21,00,03,C3,FE,20,00,00,
67074366,000005F1,false,Rx,0,8,30,01,00,A3,A3,A3,A3,A3,
67074842,000001F1,false,Rx,0,8,22,00,EF,F8,20,00,00,00,
67075662,000005F1,false,Rx,0,8,30,01,00,A3,A3,A3,A3,A3,
67076669,000001F1,false,Rx,0,8,23,3F,E0,30,00,00,00,00,
67078376,000005F1,false,Rx,0,8,30,01,00,A3,A3,A3,A3,A3,
67078852,000001F1,false,Rx,0,8,24,30,30,00,00,00,00,18,
67079678,000005F1,false,Rx,0,8,30,01,00,A3,A3,A3,A3,A3,
67080726,000001F1,false,Rx,0,8,25,10,00,00,00,00,0C,10,
67084736,000005F1,false,Rx,0,8,30,01,00,A3,A3,A3,A3,A3,
67084756,000001F1,false,Rx,0,8,26,00,00,00,00,06,10,00,
67087548,000005F1,false,Rx,0,8,30,01,00,A3,A3,A3,A3,A3,
67088756,000001F1,false,Rx,0,8,27,00,00,00,03,30,00,00,
67089219,000005F1,false,Rx,0,8,30,01,00,A3,A3,A3,A3,A3,
67089675,000001F1,false,Rx,0,8,28,00,00,00,E0,00,00,00,
67090707,000005F1,false,Rx,0,8,30,01,00,A3,A3,A3,A3,A3,
67091721,000001F1,false,Rx,0,8,29,00,00,00,00,00,00,00,
67093789,000005F1,false,Rx,0,8,30,01,00,A3,A3,A3,A3,A3,
67094599,000001F1,false,Rx,0,8,2A,00,00,00,00,00,00,00,
67095630,000005F1,false,Rx,0,8,30,01,00,A3,A3,A3,A3,A3,
67096613,000001F1,false,Rx,0,8,2B,00,00,00,00,00,00,00,
67097245,000005F1,false,Rx,0,8,74,A3,A3,A3,A3,A3,A3,A3,
67153835,000003AF,false,Rx,0,8,B9,00,00,00,00,00,00,00,
67219236,000003CF,false,Rx,0,8,69,00,A3,A3,A3,A3,A3,A3,
67654116,000003AF,false,Rx,0,8,B9,00,00,00,00,00,00,00,
67723422,000003CF,false,Rx,0,8,69,00,A3,A3,A3,A3,A3,A3,
68154168,000003AF,false,Rx,0,8,B9,00,00,00,00,00,00,00,
68227298,000003CF,false,Rx,0,8,69,00,A3,A3,A3,A3,A3,A3,
68654384,000003AF,false,Rx,0,8,B9,00,00,00,00,00,00,00,
68731146,000003CF,false,Rx,0,8,69,00,A3,A3,A3,A3,A3,A3,
69154331,000003AF,false,Rx,0,8,B9,00,00,00,00,00,00,00,
69235163,000003CF,false,Rx,0,8,69,00,A3,A3,A3,A3,A3,A3,
69654721,000003AF,false,Rx,0,8,B9,00,00,00,00,00,00,00,
69739239,000003CF,false,Rx,0,8,69,00,A3,A3,A3,A3,A3,A3,
70154695,000003AF,false,Rx,0,8,B9,00,00,00,00,00,00,00,
70243128,000003CF,false,Rx,0,8,69,00,A3,A3,A3,A3,A3,A3,
70654855,000003AF,false,Rx,0,8,B9,00,00,00,00,00,00,00,
70747108,000003CF,false,Rx,0,8,69,00,A3,A3,A3,A3,A3,A3,
71155096,000003AF,false,Rx,0,8,B9,00,00,00,00,00,00,00,
71250942,000003CF,false,Rx,0,8,69,00,A3,A3,A3,A3,A3,A3,
71655160,000003AF,false,Rx,0,8,B9,00,00,00,00,00,00,00,
71755047,000003CF,false,Rx,0,8,69,00,A3,A3,A3,A3,A3,A3,
72155713,000003AF,false,Rx,0,8,B9,00,00,00,00,00,00,00,
72258976,000003CF,false,Rx,0,8,69,00,A3,A3,A3,A3,A3,A3,
72655387,000003AF,false,Rx,0,8,B9,00,00,00,00,00,00,00,
72762781,000003CF,false,Rx,0,8,69,00,A3,A3,A3,A3,A3,A3,
73155700,000003AF,false,Rx,0,8,B9,00,00,00,00,00,00,00,
73267330,000003CF,false,Rx,0,8,69,00,A3,A3,A3,A3,A3,A3,
73655750,000003AF,false,Rx,0,8,B9,00,00,00,00,00,00,00,
73771054,000003CF,false,Rx,0,8,69,00,A3,A3,A3,A3,A3,A3,
74155939,000003AF,false,Rx,0,8,B9,00,00,00,00,00,00,00,
74274683,000003CF,false,Rx,0,8,69,00,A3,A3,A3,A3,A3,A3,
74655992,000003AF,false,Rx,0,8,B9,00,00,00,00,00,00,00,
74778638,000003CF,false,Rx,0,8,69,00,A3,A3,A3,A3,A3,A3,
75156128,000003AF,false,Rx,0,8,B9,00,00,00,00,00,00,00,
75282718,000003CF,false,Rx,0,8,69,00,A3,A3,A3,A3,A3,A3,
75656317,000003AF,false,Rx,0,8,B9,00,00,00,00,00,00,00,
75787682,000003CF,false,Rx,0,8,69,00,A3,A3,A3,A3,A3,A3,
76156371,000003AF,false,Rx,0,8,B9,00,00,00,00,00,00,00,
76290502,000003CF,false,Rx,0,8,69,00,A3,A3,A3,A3,A3,A3,
76656620,000003AF,false,Rx,0,8,B9,00,00,00,00,00,00,00,
76794595,000003CF,false,Rx,0,8,69,00,A3,A3,A3,A3,A3,A3,
77156590,000003AF,false,Rx,0,8,B9,00,00,00,00,00,00,00,
77298539,000003CF,false,Rx,0,8,69,00,A3,A3,A3,A3,A3,A3,
77656894,000003AF,false,Rx,0,8,B9,00,00,00,00,00,00,00,
77802460,000003CF,false,Rx,0,8,69,00,A3,A3,A3,A3,A3,A3,
78156981,000003AF,false,Rx,0,8,B9,00,00,00,00,00,00,00,
78306476,000003CF,false,Rx,0,8,69,00,A3,A3,A3,A3,A3,A3,
